
T17B8 000:360 SEGGER J-Link V5.02f Log File (0043ms, 0328ms total)
T17B8 000:360 DLL Compiled: Oct  2 2015 20:51:34 (0043ms, 0328ms total)
T17B8 000:360 Logging started @ 2017-03-29 09:19 (0043ms, 0328ms total)
T17B8 000:403 JLINK_SetWarnOutHandler(...) (0000ms, 0328ms total)
T17B8 000:403 JLINK_OpenEx(...)
Firmware: J-Link V9 compiled Sep 18 2015 19:53:12
Hardware: V9.20
Feature(s): GDB, RDI, FlashBP, FlashDL, JFlash  returns O.K. (0281ms, 0609ms total)
T17B8 000:684 JLINK_SetErrorOutHandler(...) (0000ms, 0609ms total)
T17B8 000:684 JLINK_ExecCommand("ProjectFile = "E:\workroom\my STM32\SZJS_gateway_tool\JLinkSettings.ini"", ...)Device "UNSPECIFIED" selected.  returns 0x00 (0090ms, 0699ms total)
T17B8 000:779 JLINK_ExecCommand("Device = STM32F205RETx", ...)Device "UNSPECIFIED" selected.  returns 0x00 (0004ms, 0703ms total)
T17B8 000:783 JLINK_ExecCommand("DisableConnectionTimeout", ...)  returns 0x01 (0000ms, 0703ms total)
T17B8 000:783 JLINK_GetHardwareVersion()  returns 0x16760 (0000ms, 0703ms total)
T17B8 000:783 JLINK_GetDLLVersion()  returns 50206 (0000ms, 0703ms total)
T17B8 000:783 JLINK_GetFirmwareString(...) (0000ms, 0703ms total)
T17B8 000:794 JLINK_GetDLLVersion()  returns 50206 (0000ms, 0703ms total)
T17B8 000:794 JLINK_GetCompileDateTime() (0000ms, 0703ms total)
T17B8 000:797 JLINK_GetFirmwareString(...) (0000ms, 0703ms total)
T17B8 000:801 JLINK_GetHardwareVersion()  returns 0x16760 (0000ms, 0703ms total)
T17B8 000:817 JLINK_TIF_Select(JLINKARM_TIF_SWD)  returns 0x00 (0005ms, 0708ms total)
T17B8 000:822 JLINK_SetSpeed(5000) (0001ms, 0709ms total)
T17B8 000:823 JLINK_GetId() >0x108 TIF>Found SWD-DP with ID 0x2BA01477 >0x0D TIF> >0x21 TIF> >0x0D TIF> >0x28 TIF> >0x0D TIF> >0x28 TIF> >0x0D TIF> >0x21 TIF> >0x0D TIF> >0x28 TIF> >0x0D TIF> >0x21 TIF> >0x0D TIF> >0x21 TIF> >0x0D TIF> >0x21 TIF> >0x0D TIF> >0x21 TIF> >0x0D TIF> >0x28 TIF> >0x0D TIF> >0x28 TIF> >0x0D TIF> >0x21 TIF> >0x0D TIF> >0x28 TIF> >0x0D TIF> >0x28 TIF> >0x0D TIF> >0x28 TIF> >0x0D TIF> >0x21 TIF> >0x0D TIF> >0x21 TIF> >0x0D TIF> >0x28 TIF> >0x0D TIF> >0x21 TIF> >0x0D TIF>
 >0x21 TIF>Found Cortex-M3 r2p0, Little endian. -- CPU_ReadMem(4 bytes @ 0xE000EDF0) -- CPU_WriteMem(4 bytes @ 0xE000EDF0) -- CPU_ReadMem(4 bytes @ 0xE0002000)FPUnit: 6 code (BP) slots and 2 literal slots -- CPU_ReadMem(4 bytes @ 0xE000EDFC) -- CPU_WriteMem(4 bytes @ 0xE000EDFC) -- CPU_ReadMem(4 bytes @ 0xE0001000) -- CPU_WriteMem(4 bytes @ 0xE0001000) -- CPU_ReadMem(4 bytes @ 0xE000ED88) -- CPU_WriteMem(4 bytes @ 0xE000ED88) -- CPU_ReadMem(4 bytes @ 0xE000ED88) -- CPU_WriteMem(4 bytes @ 0xE000ED88)
CoreSight components:ROMTbl 0 @ E00FF000 -- CPU_ReadMem(16 bytes @ 0xE00FF000) -- CPU_ReadMem(16 bytes @ 0xE000EFF0) -- CPU_ReadMem(16 bytes @ 0xE000EFE0)ROMTbl 0 [0]: FFF0F000, CID: B105E00D, PID: 002BB000 SCS -- CPU_ReadMem(16 bytes @ 0xE0001FF0) -- CPU_ReadMem(16 bytes @ 0xE0001FE0)ROMTbl 0 [1]: FFF02000, CID: B105E00D, PID: 002BB002 DWT -- CPU_ReadMem(16 bytes @ 0xE0002FF0) -- CPU_ReadMem(16 bytes @ 0xE0002FE0)ROMTbl 0 [2]: FFF03000, CID: B105E00D, PID: 002BB003 FPB
 -- CPU_ReadMem(16 bytes @ 0xE0000FF0) -- CPU_ReadMem(16 bytes @ 0xE0000FE0)ROMTbl 0 [3]: FFF01000, CID: B105E00D, PID: 002BB001 ITM -- CPU_ReadMem(16 bytes @ 0xE00FF010) -- CPU_ReadMem(16 bytes @ 0xE0040FF0) -- CPU_ReadMem(16 bytes @ 0xE0040FE0)ROMTbl 0 [4]: FFF41000, CID: B105900D, PID: 002BB923 TPIU-Lite -- CPU_ReadMem(16 bytes @ 0xE0041FF0) -- CPU_ReadMem(16 bytes @ 0xE0041FE0)ROMTbl 0 [5]: FFF42000, CID: B105900D, PID: 002BB924 ETM-M3 >0x0D TIF> >0x21 TIF>  returns 0x2BA01477
 (0127ms, 0836ms total)
T17B8 000:950 JLINK_GetDLLVersion()  returns 50206 (0000ms, 0836ms total)
T17B8 000:950 JLINK_CORE_GetFound()  returns 0x30000FF (0000ms, 0836ms total)
T17B8 000:950 JLINK_GetDebugInfo(0x100) -- Value=0xE00FF003  returns 0x00 (0000ms, 0836ms total)
T17B8 000:953 JLINK_GetDebugInfo(0x100) -- Value=0xE00FF003  returns 0x00 (0000ms, 0836ms total)
T17B8 000:953 JLINK_GetDebugInfo(0x101) -- Value=0xE0041000  returns 0x00 (0000ms, 0836ms total)
T17B8 000:953 JLINK_GetDebugInfo(0x102) -- Value=0x00000000  returns 0x00 (0000ms, 0836ms total)
T17B8 000:953 JLINK_GetDebugInfo(0x103) -- Value=0xE0040000  returns 0x00 (0000ms, 0836ms total)
T17B8 000:953 JLINK_GetDebugInfo(0x104) -- Value=0xE0000000  returns 0x00 (0000ms, 0836ms total)
T17B8 000:953 JLINK_GetDebugInfo(0x105) -- Value=0xE0001000  returns 0x00 (0000ms, 0836ms total)
T17B8 000:953 JLINK_GetDebugInfo(0x106) -- Value=0xE0002000  returns 0x00 (0000ms, 0836ms total)
T17B8 000:953 JLINK_GetDebugInfo(0x107) -- Value=0xE000E000  returns 0x00 (0000ms, 0836ms total)
T17B8 000:953 JLINK_GetDebugInfo(0x10C) -- Value=0xE000EDF0  returns 0x00 (0000ms, 0836ms total)
T17B8 000:953 JLINK_ReadMemU32(0xE000ED00, 0x0001 Items, ...) -- CPU is running -- CPU_ReadMem(4 bytes @ 0xE000ED00) - Data: 30 C2 2F 41  returns 0x01 (0002ms, 0838ms total)
T17B8 000:955 JLINK_SetResetType(JLINKARM_RESET_TYPE_NORMAL)  returns JLINKARM_RESET_TYPE_NORMAL (0000ms, 0838ms total)
T17B8 000:955 JLINK_Reset() -- CPU is running -- CPU_WriteMem(4 bytes @ 0xE000EDF0) -- CPU is running -- CPU_WriteMem(4 bytes @ 0xE000EDFC) >0x35 TIF> -- CPU is running -- CPU_WriteMem(4 bytes @ 0xE000ED0C) -- CPU is running -- CPU_ReadMem(4 bytes @ 0xE000EDF0) -- CPU is running -- CPU_ReadMem(4 bytes @ 0xE000EDF0) -- CPU is running -- CPU_WriteMem(4 bytes @ 0xE000EDF0) -- CPU is running -- CPU_WriteMem(4 bytes @ 0xE000EDFC) -- CPU is running -- CPU_ReadMem(4 bytes @ 0xE000EDF0)
 -- CPU_WriteMem(4 bytes @ 0xE0002000) -- CPU_ReadMem(4 bytes @ 0xE000EDFC) -- CPU_ReadMem(4 bytes @ 0xE0001000) (0023ms, 0861ms total)
T17B8 000:978 JLINK_Halt()  returns 0x00 (0000ms, 0861ms total)
T17B8 000:978 JLINK_IsHalted()  returns TRUE (0000ms, 0861ms total)
T17B8 000:978 JLINK_ReadMemU32(0xE000EDF0, 0x0001 Items, ...) -- CPU_ReadMem(4 bytes @ 0xE000EDF0) - Data: 03 00 03 00  returns 0x01 (0001ms, 0862ms total)
T17B8 000:979 JLINK_WriteU32(0xE000EDF0, 0xA05F0003) -- CPU_WriteMem(4 bytes @ 0xE000EDF0)  returns 0x00 (0001ms, 0863ms total)
T17B8 000:980 JLINK_WriteU32(0xE000EDFC, 0x01000000) -- CPU_WriteMem(4 bytes @ 0xE000EDFC)  returns 0x00 (0001ms, 0864ms total)
T17B8 000:997 JLINK_GetHWStatus(...)  returns 0x00 (0001ms, 0865ms total)
T17B8 001:013 JLINK_GetNumBPUnits(Type = 0xFFFFFF00)  returns 0x06 (0001ms, 0866ms total)
T17B8 001:014 JLINK_GetNumBPUnits(Type = 0xF0)  returns 0x2000 (0000ms, 0866ms total)
T17B8 001:014 JLINK_GetNumWPUnits()  returns 0x04 (0000ms, 0866ms total)
T17B8 001:031 JLINK_GetSpeed()  returns 0xFA0 (0000ms, 0866ms total)
T17B8 001:039 JLINK_ReadMemU32(0xE000E004, 0x0001 Items, ...) -- CPU_ReadMem(4 bytes @ 0xE000E004) - Data: 02 00 00 00  returns 0x01 (0002ms, 0868ms total)
T17B8 001:041 JLINK_ReadMemU32(0xE000E004, 0x0001 Items, ...) -- CPU_ReadMem(4 bytes @ 0xE000E004) - Data: 02 00 00 00  returns 0x01 (0001ms, 0869ms total)
T17B8 001:042 JLINK_WriteMem(0xE0001000, 0x001C Bytes, ...) - Data: 01 00 00 00 00 00 00 00 00 00 00 00 00 00 00 00 ... -- CPU_WriteMem(28 bytes @ 0xE0001000)  returns 0x1C (0001ms, 0870ms total)
T17B8 001:043 JLINK_ReadMem (0xE0001000, 0x001C Bytes, ...) -- CPU_ReadMem(28 bytes @ 0xE0001000) - Data: 01 00 00 40 00 00 00 00 00 00 00 00 00 00 00 00 ...  returns 0x00 (0001ms, 0871ms total)
T17B8 001:044 JLINK_Halt()  returns 0x00 (0000ms, 0871ms total)
T17B8 001:044 JLINK_IsHalted()  returns TRUE (0000ms, 0871ms total)
T17B8 001:048 JLINK_WriteMem(0x20000000, 0x0180 Bytes, ...) - Data: 00 BE 0A E0 0D 78 2D 06 68 40 08 24 40 00 00 D3 ... -- CPU_WriteMem(384 bytes @ 0x20000000)  returns 0x180 (0003ms, 0874ms total)
T17B8 001:051 JLINK_WriteReg(R0, 0x08000000)  returns 0x00 (0000ms, 0874ms total)
T17B8 001:051 JLINK_WriteReg(R1, 0x017D7840)  returns 0x00 (0000ms, 0874ms total)
T17B8 001:051 JLINK_WriteReg(R2, 0x00000001)  returns 0x00 (0000ms, 0874ms total)
T17B8 001:051 JLINK_WriteReg(R3, 0x00000000)  returns 0x00 (0000ms, 0874ms total)
T17B8 001:051 JLINK_WriteReg(R4, 0x00000000)  returns 0x00 (0000ms, 0874ms total)
T17B8 001:051 JLINK_WriteReg(R5, 0x00000000)  returns 0x00 (0000ms, 0874ms total)
T17B8 001:051 JLINK_WriteReg(R6, 0x00000000)  returns 0x00 (0000ms, 0874ms total)
T17B8 001:051 JLINK_WriteReg(R7, 0x00000000)  returns 0x00 (0000ms, 0874ms total)
T17B8 001:051 JLINK_WriteReg(R8, 0x00000000)  returns 0x00 (0000ms, 0874ms total)
T17B8 001:051 JLINK_WriteReg(R9, 0x2000017C)  returns 0x00 (0000ms, 0874ms total)
T17B8 001:051 JLINK_WriteReg(R10, 0x00000000)  returns 0x00 (0000ms, 0874ms total)
T17B8 001:051 JLINK_WriteReg(R11, 0x00000000)  returns 0x00 (0000ms, 0874ms total)
T17B8 001:051 JLINK_WriteReg(R12, 0x00000000)  returns 0x00 (0000ms, 0874ms total)
T17B8 001:051 JLINK_WriteReg(R13 (SP), 0x20001000)  returns 0x00 (0000ms, 0874ms total)
T17B8 001:051 JLINK_WriteReg(R14, 0x20000001)  returns 0x00 (0000ms, 0874ms total)
T17B8 001:051 JLINK_WriteReg(R15 (PC), 0x20000054)  returns 0x00 (0000ms, 0874ms total)
T17B8 001:051 JLINK_WriteReg(XPSR, 0x01000000)  returns 0x00 (0000ms, 0874ms total)
T17B8 001:051 JLINK_WriteReg(MSP, 0x20001000)  returns 0x00 (0000ms, 0874ms total)
T17B8 001:051 JLINK_WriteReg(PSP, 0x20001000)  returns 0x00 (0000ms, 0874ms total)
T17B8 001:051 JLINK_WriteReg(CFBP, 0x00000000)  returns 0x00 (0000ms, 0874ms total)
T17B8 001:051 JLINK_SetBPEx(Addr = 0x20000000, Type = 0xFFFFFFF2) -- CPU_ReadMem(4 bytes @ 0x20000000) -- CPU_WriteMem(4 bytes @ 0x20000000) -- CPU_ReadMem(4 bytes @ 0x20000000) -- CPU_WriteMem(4 bytes @ 0x20000000) -- CPU_ReadMem(2 bytes @ 0x20000000)  returns 0x00000001 (0005ms, 0879ms total)
T17B8 001:056 JLINK_Go() -- CPU_WriteMem(2 bytes @ 0x20000000) -- CPU_ReadMem(4 bytes @ 0xE0001000) -- CPU_WriteMem(4 bytes @ 0xE0002008) -- CPU_WriteMem(4 bytes @ 0xE000200C) -- CPU_WriteMem(4 bytes @ 0xE0002010) -- CPU_WriteMem(4 bytes @ 0xE0002014) -- CPU_WriteMem(4 bytes @ 0xE0002018) -- CPU_WriteMem(4 bytes @ 0xE000201C) -- CPU_WriteMem(4 bytes @ 0xE0001004) (0006ms, 0885ms total)
T17B8 001:062 JLINK_IsHalted() -- CPU_ReadMem(2 bytes @ 0x20000000)  returns TRUE (0004ms, 0889ms total)
T17B8 001:066 JLINK_ReadReg(R15 (PC))  returns 0x20000000 (0000ms, 0885ms total)
T17B8 001:066 JLINK_ClrBPEx(BPHandle = 0x00000001)  returns 0x00 (0000ms, 0885ms total)
T17B8 001:066 JLINK_ReadReg(R0)  returns 0x00000000 (0000ms, 0885ms total)
T17B8 001:066 JLINK_WriteReg(R0, 0x08000000)  returns 0x00 (0000ms, 0885ms total)
T17B8 001:066 JLINK_WriteReg(R1, 0x00004000)  returns 0x00 (0000ms, 0885ms total)
T17B8 001:066 JLINK_WriteReg(R2, 0x000000FF)  returns 0x00 (0000ms, 0885ms total)
T17B8 001:066 JLINK_WriteReg(R3, 0x00000000)  returns 0x00 (0000ms, 0885ms total)
T17B8 001:066 JLINK_WriteReg(R4, 0x00000000)  returns 0x00 (0000ms, 0885ms total)
T17B8 001:066 JLINK_WriteReg(R5, 0x00000000)  returns 0x00 (0000ms, 0885ms total)
T17B8 001:066 JLINK_WriteReg(R6, 0x00000000)  returns 0x00 (0000ms, 0885ms total)
T17B8 001:066 JLINK_WriteReg(R7, 0x00000000)  returns 0x00 (0000ms, 0885ms total)
T17B8 001:066 JLINK_WriteReg(R8, 0x00000000)  returns 0x00 (0000ms, 0885ms total)
T17B8 001:066 JLINK_WriteReg(R9, 0x2000017C)  returns 0x00 (0000ms, 0885ms total)
T17B8 001:066 JLINK_WriteReg(R10, 0x00000000)  returns 0x00 (0000ms, 0885ms total)
T17B8 001:066 JLINK_WriteReg(R11, 0x00000000)  returns 0x00 (0000ms, 0885ms total)
T17B8 001:066 JLINK_WriteReg(R12, 0x00000000)  returns 0x00 (0000ms, 0885ms total)
T17B8 001:066 JLINK_WriteReg(R13 (SP), 0x20001000)  returns 0x00 (0001ms, 0886ms total)
T17B8 001:067 JLINK_WriteReg(R14, 0x20000001)  returns 0x00 (0000ms, 0886ms total)
T17B8 001:067 JLINK_WriteReg(R15 (PC), 0x20000020)  returns 0x00 (0000ms, 0886ms total)
T17B8 001:067 JLINK_WriteReg(XPSR, 0x01000000)  returns 0x00 (0000ms, 0886ms total)
T17B8 001:067 JLINK_WriteReg(MSP, 0x20001000)  returns 0x00 (0000ms, 0886ms total)
T17B8 001:067 JLINK_WriteReg(PSP, 0x20001000)  returns 0x00 (0000ms, 0886ms total)
T17B8 001:067 JLINK_WriteReg(CFBP, 0x00000000)  returns 0x00 (0000ms, 0886ms total)
T17B8 001:067 JLINK_SetBPEx(Addr = 0x20000000, Type = 0xFFFFFFF2)  returns 0x00000002 (0000ms, 0886ms total)
T17B8 001:067 JLINK_Go() -- CPU_ReadMem(4 bytes @ 0xE0001000) (0003ms, 0889ms total)
T17B8 001:070 JLINK_IsHalted() -- CPU_ReadMem(2 bytes @ 0x20000000)  returns TRUE (0004ms, 0893ms total)
T17B8 001:074 JLINK_ReadReg(R15 (PC))  returns 0x20000000 (0000ms, 0889ms total)
T17B8 001:074 JLINK_ClrBPEx(BPHandle = 0x00000002)  returns 0x00 (0000ms, 0889ms total)
T17B8 001:074 JLINK_ReadReg(R0)  returns 0x00000001 (0000ms, 0889ms total)
T17B8 001:074 JLINK_WriteReg(R0, 0x08000000)  returns 0x00 (0000ms, 0889ms total)
T17B8 001:074 JLINK_WriteReg(R1, 0x00004000)  returns 0x00 (0000ms, 0889ms total)
T17B8 001:074 JLINK_WriteReg(R2, 0x000000FF)  returns 0x00 (0000ms, 0889ms total)
T17B8 001:074 JLINK_WriteReg(R3, 0x00000000)  returns 0x00 (0000ms, 0889ms total)
T17B8 001:074 JLINK_WriteReg(R4, 0x00000000)  returns 0x00 (0000ms, 0889ms total)
T17B8 001:074 JLINK_WriteReg(R5, 0x00000000)  returns 0x00 (0001ms, 0890ms total)
T17B8 001:075 JLINK_WriteReg(R6, 0x00000000)  returns 0x00 (0000ms, 0890ms total)
T17B8 001:075 JLINK_WriteReg(R7, 0x00000000)  returns 0x00 (0000ms, 0890ms total)
T17B8 001:075 JLINK_WriteReg(R8, 0x00000000)  returns 0x00 (0000ms, 0890ms total)
T17B8 001:075 JLINK_WriteReg(R9, 0x2000017C)  returns 0x00 (0000ms, 0890ms total)
T17B8 001:075 JLINK_WriteReg(R10, 0x00000000)  returns 0x00 (0000ms, 0890ms total)
T17B8 001:075 JLINK_WriteReg(R11, 0x00000000)  returns 0x00 (0000ms, 0890ms total)
T17B8 001:075 JLINK_WriteReg(R12, 0x00000000)  returns 0x00 (0000ms, 0890ms total)
T17B8 001:075 JLINK_WriteReg(R13 (SP), 0x20001000)  returns 0x00 (0000ms, 0890ms total)
T17B8 001:075 JLINK_WriteReg(R14, 0x20000001)  returns 0x00 (0000ms, 0890ms total)
T17B8 001:075 JLINK_WriteReg(R15 (PC), 0x200000BC)  returns 0x00 (0000ms, 0890ms total)
T17B8 001:075 JLINK_WriteReg(XPSR, 0x01000000)  returns 0x00 (0000ms, 0890ms total)
T17B8 001:075 JLINK_WriteReg(MSP, 0x20001000)  returns 0x00 (0000ms, 0890ms total)
T17B8 001:075 JLINK_WriteReg(PSP, 0x20001000)  returns 0x00 (0000ms, 0890ms total)
T17B8 001:075 JLINK_WriteReg(CFBP, 0x00000000)  returns 0x00 (0000ms, 0890ms total)
T17B8 001:075 JLINK_SetBPEx(Addr = 0x20000000, Type = 0xFFFFFFF2)  returns 0x00000003 (0000ms, 0890ms total)
T17B8 001:075 JLINK_Go() -- CPU_ReadMem(4 bytes @ 0xE0001000) (0004ms, 0894ms total)
T17B8 001:079 JLINK_IsHalted()  returns FALSE (0001ms, 0895ms total)
T17B8 001:199 JLINK_IsHalted()  returns FALSE (0001ms, 0895ms total)
T17B8 001:297 JLINK_IsHalted()  returns FALSE (0001ms, 0895ms total)
T17B8 001:401 JLINK_IsHalted()  returns FALSE (0001ms, 0895ms total)
T17B8 001:500 JLINK_IsHalted() -- CPU_ReadMem(2 bytes @ 0x20000000)  returns TRUE (0004ms, 0898ms total)
T17B8 001:504 JLINK_ReadReg(R15 (PC))  returns 0x20000000 (0000ms, 0894ms total)
T17B8 001:504 JLINK_ClrBPEx(BPHandle = 0x00000003)  returns 0x00 (0000ms, 0894ms total)
T17B8 001:504 JLINK_ReadReg(R0)  returns 0x00000000 (0000ms, 0894ms total)
T17B8 001:504 JLINK_WriteReg(R0, 0x08004000)  returns 0x00 (0000ms, 0894ms total)
T17B8 001:504 JLINK_WriteReg(R1, 0x00004000)  returns 0x00 (0000ms, 0894ms total)
T17B8 001:504 JLINK_WriteReg(R2, 0x000000FF)  returns 0x00 (0000ms, 0894ms total)
T17B8 001:504 JLINK_WriteReg(R3, 0x00000000)  returns 0x00 (0000ms, 0894ms total)
T17B8 001:504 JLINK_WriteReg(R4, 0x00000000)  returns 0x00 (0000ms, 0894ms total)
T17B8 001:504 JLINK_WriteReg(R5, 0x00000000)  returns 0x00 (0000ms, 0894ms total)
T17B8 001:504 JLINK_WriteReg(R6, 0x00000000)  returns 0x00 (0000ms, 0894ms total)
T17B8 001:504 JLINK_WriteReg(R7, 0x00000000)  returns 0x00 (0000ms, 0894ms total)
T17B8 001:504 JLINK_WriteReg(R8, 0x00000000)  returns 0x00 (0000ms, 0894ms total)
T17B8 001:504 JLINK_WriteReg(R9, 0x2000017C)  returns 0x00 (0000ms, 0894ms total)
T17B8 001:504 JLINK_WriteReg(R10, 0x00000000)  returns 0x00 (0000ms, 0894ms total)
T17B8 001:504 JLINK_WriteReg(R11, 0x00000000)  returns 0x00 (0000ms, 0894ms total)
T17B8 001:504 JLINK_WriteReg(R12, 0x00000000)  returns 0x00 (0000ms, 0894ms total)
T17B8 001:504 JLINK_WriteReg(R13 (SP), 0x20001000)  returns 0x00 (0000ms, 0894ms total)
T17B8 001:504 JLINK_WriteReg(R14, 0x20000001)  returns 0x00 (0000ms, 0894ms total)
T17B8 001:504 JLINK_WriteReg(R15 (PC), 0x20000020)  returns 0x00 (0000ms, 0894ms total)
T17B8 001:504 JLINK_WriteReg(XPSR, 0x01000000)  returns 0x00 (0000ms, 0894ms total)
T17B8 001:504 JLINK_WriteReg(MSP, 0x20001000)  returns 0x00 (0000ms, 0894ms total)
T17B8 001:504 JLINK_WriteReg(PSP, 0x20001000)  returns 0x00 (0000ms, 0894ms total)
T17B8 001:504 JLINK_WriteReg(CFBP, 0x00000000)  returns 0x00 (0001ms, 0895ms total)
T17B8 001:505 JLINK_SetBPEx(Addr = 0x20000000, Type = 0xFFFFFFF2)  returns 0x00000004 (0000ms, 0895ms total)
T17B8 001:505 JLINK_Go() -- CPU_ReadMem(4 bytes @ 0xE0001000) (0003ms, 0898ms total)
T17B8 001:508 JLINK_IsHalted() -- CPU_ReadMem(2 bytes @ 0x20000000)  returns TRUE (0004ms, 0902ms total)
T17B8 001:512 JLINK_ReadReg(R15 (PC))  returns 0x20000000 (0000ms, 0898ms total)
T17B8 001:512 JLINK_ClrBPEx(BPHandle = 0x00000004)  returns 0x00 (0000ms, 0898ms total)
T17B8 001:512 JLINK_ReadReg(R0)  returns 0x00000001 (0000ms, 0898ms total)
T17B8 001:512 JLINK_WriteReg(R0, 0x08004000)  returns 0x00 (0000ms, 0898ms total)
T17B8 001:512 JLINK_WriteReg(R1, 0x00004000)  returns 0x00 (0000ms, 0898ms total)
T17B8 001:512 JLINK_WriteReg(R2, 0x000000FF)  returns 0x00 (0000ms, 0898ms total)
T17B8 001:512 JLINK_WriteReg(R3, 0x00000000)  returns 0x00 (0000ms, 0898ms total)
T17B8 001:512 JLINK_WriteReg(R4, 0x00000000)  returns 0x00 (0000ms, 0898ms total)
T17B8 001:512 JLINK_WriteReg(R5, 0x00000000)  returns 0x00 (0000ms, 0898ms total)
T17B8 001:512 JLINK_WriteReg(R6, 0x00000000)  returns 0x00 (0000ms, 0898ms total)
T17B8 001:512 JLINK_WriteReg(R7, 0x00000000)  returns 0x00 (0000ms, 0898ms total)
T17B8 001:512 JLINK_WriteReg(R8, 0x00000000)  returns 0x00 (0000ms, 0898ms total)
T17B8 001:512 JLINK_WriteReg(R9, 0x2000017C)  returns 0x00 (0000ms, 0898ms total)
T17B8 001:512 JLINK_WriteReg(R10, 0x00000000)  returns 0x00 (0000ms, 0898ms total)
T17B8 001:512 JLINK_WriteReg(R11, 0x00000000)  returns 0x00 (0000ms, 0898ms total)
T17B8 001:512 JLINK_WriteReg(R12, 0x00000000)  returns 0x00 (0000ms, 0898ms total)
T17B8 001:512 JLINK_WriteReg(R13 (SP), 0x20001000)  returns 0x00 (0000ms, 0898ms total)
T17B8 001:512 JLINK_WriteReg(R14, 0x20000001)  returns 0x00 (0000ms, 0898ms total)
T17B8 001:512 JLINK_WriteReg(R15 (PC), 0x200000BC)  returns 0x00 (0000ms, 0898ms total)
T17B8 001:512 JLINK_WriteReg(XPSR, 0x01000000)  returns 0x00 (0000ms, 0898ms total)
T17B8 001:512 JLINK_WriteReg(MSP, 0x20001000)  returns 0x00 (0000ms, 0898ms total)
T17B8 001:512 JLINK_WriteReg(PSP, 0x20001000)  returns 0x00 (0000ms, 0898ms total)
T17B8 001:512 JLINK_WriteReg(CFBP, 0x00000000)  returns 0x00 (0000ms, 0898ms total)
T17B8 001:512 JLINK_SetBPEx(Addr = 0x20000000, Type = 0xFFFFFFF2)  returns 0x00000005 (0000ms, 0898ms total)
T17B8 001:512 JLINK_Go() -- CPU_ReadMem(4 bytes @ 0xE0001000) (0003ms, 0901ms total)
T17B8 001:515 JLINK_IsHalted()  returns FALSE (0001ms, 0902ms total)
T17B8 001:617 JLINK_IsHalted()  returns FALSE (0001ms, 0902ms total)
T17B8 001:720 JLINK_IsHalted()  returns FALSE (0001ms, 0902ms total)
T17B8 001:814 JLINK_IsHalted()  returns FALSE (0001ms, 0902ms total)
T17B8 001:911 JLINK_IsHalted() -- CPU_ReadMem(2 bytes @ 0x20000000)  returns TRUE (0004ms, 0905ms total)
T17B8 001:915 JLINK_ReadReg(R15 (PC))  returns 0x20000000 (0000ms, 0901ms total)
T17B8 001:915 JLINK_ClrBPEx(BPHandle = 0x00000005)  returns 0x00 (0000ms, 0901ms total)
T17B8 001:915 JLINK_ReadReg(R0)  returns 0x00000000 (0000ms, 0901ms total)
T17B8 001:915 JLINK_WriteReg(R0, 0x08008000)  returns 0x00 (0000ms, 0901ms total)
T17B8 001:915 JLINK_WriteReg(R1, 0x00004000)  returns 0x00 (0000ms, 0901ms total)
T17B8 001:915 JLINK_WriteReg(R2, 0x000000FF)  returns 0x00 (0000ms, 0901ms total)
T17B8 001:915 JLINK_WriteReg(R3, 0x00000000)  returns 0x00 (0000ms, 0901ms total)
T17B8 001:915 JLINK_WriteReg(R4, 0x00000000)  returns 0x00 (0000ms, 0901ms total)
T17B8 001:915 JLINK_WriteReg(R5, 0x00000000)  returns 0x00 (0000ms, 0901ms total)
T17B8 001:915 JLINK_WriteReg(R6, 0x00000000)  returns 0x00 (0000ms, 0901ms total)
T17B8 001:915 JLINK_WriteReg(R7, 0x00000000)  returns 0x00 (0000ms, 0901ms total)
T17B8 001:915 JLINK_WriteReg(R8, 0x00000000)  returns 0x00 (0000ms, 0901ms total)
T17B8 001:915 JLINK_WriteReg(R9, 0x2000017C)  returns 0x00 (0000ms, 0901ms total)
T17B8 001:915 JLINK_WriteReg(R10, 0x00000000)  returns 0x00 (0000ms, 0901ms total)
T17B8 001:915 JLINK_WriteReg(R11, 0x00000000)  returns 0x00 (0000ms, 0901ms total)
T17B8 001:915 JLINK_WriteReg(R12, 0x00000000)  returns 0x00 (0000ms, 0901ms total)
T17B8 001:915 JLINK_WriteReg(R13 (SP), 0x20001000)  returns 0x00 (0000ms, 0901ms total)
T17B8 001:915 JLINK_WriteReg(R14, 0x20000001)  returns 0x00 (0000ms, 0901ms total)
T17B8 001:915 JLINK_WriteReg(R15 (PC), 0x20000020)  returns 0x00 (0000ms, 0901ms total)
T17B8 001:915 JLINK_WriteReg(XPSR, 0x01000000)  returns 0x00 (0000ms, 0901ms total)
T17B8 001:915 JLINK_WriteReg(MSP, 0x20001000)  returns 0x00 (0000ms, 0901ms total)
T17B8 001:915 JLINK_WriteReg(PSP, 0x20001000)  returns 0x00 (0000ms, 0901ms total)
T17B8 001:915 JLINK_WriteReg(CFBP, 0x00000000)  returns 0x00 (0000ms, 0901ms total)
T17B8 001:915 JLINK_SetBPEx(Addr = 0x20000000, Type = 0xFFFFFFF2)  returns 0x00000006 (0000ms, 0901ms total)
T17B8 001:915 JLINK_Go() -- CPU_ReadMem(4 bytes @ 0xE0001000) (0004ms, 0905ms total)
T17B8 001:919 JLINK_IsHalted() -- CPU_ReadMem(2 bytes @ 0x20000000)  returns TRUE (0004ms, 0909ms total)
T17B8 001:923 JLINK_ReadReg(R15 (PC))  returns 0x20000000 (0000ms, 0905ms total)
T17B8 001:923 JLINK_ClrBPEx(BPHandle = 0x00000006)  returns 0x00 (0000ms, 0905ms total)
T17B8 001:923 JLINK_ReadReg(R0)  returns 0x00000001 (0000ms, 0905ms total)
T17B8 001:923 JLINK_WriteReg(R0, 0x08008000)  returns 0x00 (0000ms, 0905ms total)
T17B8 001:923 JLINK_WriteReg(R1, 0x00004000)  returns 0x00 (0000ms, 0905ms total)
T17B8 001:923 JLINK_WriteReg(R2, 0x000000FF)  returns 0x00 (0000ms, 0905ms total)
T17B8 001:923 JLINK_WriteReg(R3, 0x00000000)  returns 0x00 (0000ms, 0905ms total)
T17B8 001:923 JLINK_WriteReg(R4, 0x00000000)  returns 0x00 (0000ms, 0905ms total)
T17B8 001:923 JLINK_WriteReg(R5, 0x00000000)  returns 0x00 (0000ms, 0905ms total)
T17B8 001:923 JLINK_WriteReg(R6, 0x00000000)  returns 0x00 (0000ms, 0905ms total)
T17B8 001:923 JLINK_WriteReg(R7, 0x00000000)  returns 0x00 (0000ms, 0905ms total)
T17B8 001:923 JLINK_WriteReg(R8, 0x00000000)  returns 0x00 (0000ms, 0905ms total)
T17B8 001:923 JLINK_WriteReg(R9, 0x2000017C)  returns 0x00 (0000ms, 0905ms total)
T17B8 001:923 JLINK_WriteReg(R10, 0x00000000)  returns 0x00 (0000ms, 0905ms total)
T17B8 001:923 JLINK_WriteReg(R11, 0x00000000)  returns 0x00 (0000ms, 0905ms total)
T17B8 001:923 JLINK_WriteReg(R12, 0x00000000)  returns 0x00 (0000ms, 0905ms total)
T17B8 001:923 JLINK_WriteReg(R13 (SP), 0x20001000)  returns 0x00 (0000ms, 0905ms total)
T17B8 001:923 JLINK_WriteReg(R14, 0x20000001)  returns 0x00 (0000ms, 0905ms total)
T17B8 001:923 JLINK_WriteReg(R15 (PC), 0x200000BC)  returns 0x00 (0000ms, 0905ms total)
T17B8 001:923 JLINK_WriteReg(XPSR, 0x01000000)  returns 0x00 (0000ms, 0905ms total)
T17B8 001:923 JLINK_WriteReg(MSP, 0x20001000)  returns 0x00 (0000ms, 0905ms total)
T17B8 001:923 JLINK_WriteReg(PSP, 0x20001000)  returns 0x00 (0000ms, 0905ms total)
T17B8 001:923 JLINK_WriteReg(CFBP, 0x00000000)  returns 0x00 (0000ms, 0905ms total)
T17B8 001:923 JLINK_SetBPEx(Addr = 0x20000000, Type = 0xFFFFFFF2)  returns 0x00000007 (0000ms, 0905ms total)
T17B8 001:923 JLINK_Go() -- CPU_ReadMem(4 bytes @ 0xE0001000) (0003ms, 0908ms total)
T17B8 001:926 JLINK_IsHalted()  returns FALSE (0001ms, 0909ms total)
T17B8 002:032 JLINK_IsHalted()  returns FALSE (0002ms, 0910ms total)
T17B8 002:129 JLINK_IsHalted()  returns FALSE (0001ms, 0909ms total)
T17B8 002:268 JLINK_IsHalted()  returns FALSE (0001ms, 0909ms total)
T17B8 002:426 JLINK_IsHalted() -- CPU_ReadMem(2 bytes @ 0x20000000)  returns TRUE (0004ms, 0912ms total)
T17B8 002:430 JLINK_ReadReg(R15 (PC))  returns 0x20000000 (0000ms, 0908ms total)
T17B8 002:430 JLINK_ClrBPEx(BPHandle = 0x00000007)  returns 0x00 (0000ms, 0908ms total)
T17B8 002:430 JLINK_ReadReg(R0)  returns 0x00000000 (0000ms, 0908ms total)
T17B8 002:430 JLINK_WriteReg(R0, 0x0800C000)  returns 0x00 (0000ms, 0908ms total)
T17B8 002:430 JLINK_WriteReg(R1, 0x00004000)  returns 0x00 (0000ms, 0908ms total)
T17B8 002:430 JLINK_WriteReg(R2, 0x000000FF)  returns 0x00 (0000ms, 0908ms total)
T17B8 002:430 JLINK_WriteReg(R3, 0x00000000)  returns 0x00 (0000ms, 0908ms total)
T17B8 002:430 JLINK_WriteReg(R4, 0x00000000)  returns 0x00 (0000ms, 0908ms total)
T17B8 002:430 JLINK_WriteReg(R5, 0x00000000)  returns 0x00 (0000ms, 0908ms total)
T17B8 002:430 JLINK_WriteReg(R6, 0x00000000)  returns 0x00 (0000ms, 0908ms total)
T17B8 002:430 JLINK_WriteReg(R7, 0x00000000)  returns 0x00 (0000ms, 0908ms total)
T17B8 002:430 JLINK_WriteReg(R8, 0x00000000)  returns 0x00 (0000ms, 0908ms total)
T17B8 002:430 JLINK_WriteReg(R9, 0x2000017C)  returns 0x00 (0000ms, 0908ms total)
T17B8 002:430 JLINK_WriteReg(R10, 0x00000000)  returns 0x00 (0000ms, 0908ms total)
T17B8 002:430 JLINK_WriteReg(R11, 0x00000000)  returns 0x00 (0000ms, 0908ms total)
T17B8 002:430 JLINK_WriteReg(R12, 0x00000000)  returns 0x00 (0000ms, 0908ms total)
T17B8 002:430 JLINK_WriteReg(R13 (SP), 0x20001000)  returns 0x00 (0000ms, 0908ms total)
T17B8 002:430 JLINK_WriteReg(R14, 0x20000001)  returns 0x00 (0000ms, 0908ms total)
T17B8 002:430 JLINK_WriteReg(R15 (PC), 0x20000020)  returns 0x00 (0000ms, 0908ms total)
T17B8 002:430 JLINK_WriteReg(XPSR, 0x01000000)  returns 0x00 (0000ms, 0908ms total)
T17B8 002:430 JLINK_WriteReg(MSP, 0x20001000)  returns 0x00 (0000ms, 0908ms total)
T17B8 002:430 JLINK_WriteReg(PSP, 0x20001000)  returns 0x00 (0000ms, 0908ms total)
T17B8 002:430 JLINK_WriteReg(CFBP, 0x00000000)  returns 0x00 (0001ms, 0909ms total)
T17B8 002:431 JLINK_SetBPEx(Addr = 0x20000000, Type = 0xFFFFFFF2)  returns 0x00000008 (0000ms, 0909ms total)
T17B8 002:431 JLINK_Go() -- CPU_ReadMem(4 bytes @ 0xE0001000) (0003ms, 0912ms total)
T17B8 002:434 JLINK_IsHalted() -- CPU_ReadMem(2 bytes @ 0x20000000)  returns TRUE (0004ms, 0916ms total)
T17B8 002:438 JLINK_ReadReg(R15 (PC))  returns 0x20000000 (0000ms, 0912ms total)
T17B8 002:438 JLINK_ClrBPEx(BPHandle = 0x00000008)  returns 0x00 (0000ms, 0912ms total)
T17B8 002:438 JLINK_ReadReg(R0)  returns 0x00000001 (0000ms, 0912ms total)
T17B8 002:438 JLINK_WriteReg(R0, 0x0800C000)  returns 0x00 (0000ms, 0912ms total)
T17B8 002:438 JLINK_WriteReg(R1, 0x00004000)  returns 0x00 (0000ms, 0912ms total)
T17B8 002:438 JLINK_WriteReg(R2, 0x000000FF)  returns 0x00 (0000ms, 0912ms total)
T17B8 002:438 JLINK_WriteReg(R3, 0x00000000)  returns 0x00 (0000ms, 0912ms total)
T17B8 002:438 JLINK_WriteReg(R4, 0x00000000)  returns 0x00 (0000ms, 0912ms total)
T17B8 002:438 JLINK_WriteReg(R5, 0x00000000)  returns 0x00 (0000ms, 0912ms total)
T17B8 002:438 JLINK_WriteReg(R6, 0x00000000)  returns 0x00 (0000ms, 0912ms total)
T17B8 002:438 JLINK_WriteReg(R7, 0x00000000)  returns 0x00 (0000ms, 0912ms total)
T17B8 002:438 JLINK_WriteReg(R8, 0x00000000)  returns 0x00 (0000ms, 0912ms total)
T17B8 002:438 JLINK_WriteReg(R9, 0x2000017C)  returns 0x00 (0000ms, 0912ms total)
T17B8 002:438 JLINK_WriteReg(R10, 0x00000000)  returns 0x00 (0000ms, 0912ms total)
T17B8 002:438 JLINK_WriteReg(R11, 0x00000000)  returns 0x00 (0000ms, 0912ms total)
T17B8 002:438 JLINK_WriteReg(R12, 0x00000000)  returns 0x00 (0000ms, 0912ms total)
T17B8 002:438 JLINK_WriteReg(R13 (SP), 0x20001000)  returns 0x00 (0000ms, 0912ms total)
T17B8 002:438 JLINK_WriteReg(R14, 0x20000001)  returns 0x00 (0000ms, 0912ms total)
T17B8 002:438 JLINK_WriteReg(R15 (PC), 0x200000BC)  returns 0x00 (0000ms, 0912ms total)
T17B8 002:438 JLINK_WriteReg(XPSR, 0x01000000)  returns 0x00 (0000ms, 0912ms total)
T17B8 002:438 JLINK_WriteReg(MSP, 0x20001000)  returns 0x00 (0000ms, 0912ms total)
T17B8 002:438 JLINK_WriteReg(PSP, 0x20001000)  returns 0x00 (0000ms, 0912ms total)
T17B8 002:438 JLINK_WriteReg(CFBP, 0x00000000)  returns 0x00 (0000ms, 0912ms total)
T17B8 002:438 JLINK_SetBPEx(Addr = 0x20000000, Type = 0xFFFFFFF2)  returns 0x00000009 (0000ms, 0912ms total)
T17B8 002:438 JLINK_Go() -- CPU_ReadMem(4 bytes @ 0xE0001000) (0003ms, 0915ms total)
T17B8 002:441 JLINK_IsHalted()  returns FALSE (0001ms, 0916ms total)
T17B8 002:575 JLINK_IsHalted()  returns FALSE (0001ms, 0916ms total)
T17B8 002:717 JLINK_IsHalted()  returns FALSE (0001ms, 0916ms total)
T17B8 002:810 JLINK_IsHalted()  returns FALSE (0001ms, 0916ms total)
T17B8 002:908 JLINK_IsHalted() -- CPU_ReadMem(2 bytes @ 0x20000000)  returns TRUE (0004ms, 0919ms total)
T17B8 002:912 JLINK_ReadReg(R15 (PC))  returns 0x20000000 (0000ms, 0915ms total)
T17B8 002:912 JLINK_ClrBPEx(BPHandle = 0x00000009)  returns 0x00 (0000ms, 0915ms total)
T17B8 002:912 JLINK_ReadReg(R0)  returns 0x00000000 (0000ms, 0915ms total)
T17B8 002:915 JLINK_WriteReg(R0, 0x08010000)  returns 0x00 (0000ms, 0915ms total)
T17B8 002:916 JLINK_WriteReg(R1, 0x00010000)  returns 0x00 (0000ms, 0916ms total)
T17B8 002:916 JLINK_WriteReg(R2, 0x000000FF)  returns 0x00 (0000ms, 0916ms total)
T17B8 002:916 JLINK_WriteReg(R3, 0x00000000)  returns 0x00 (0000ms, 0916ms total)
T17B8 002:916 JLINK_WriteReg(R4, 0x00000000)  returns 0x00 (0000ms, 0916ms total)
T17B8 002:916 JLINK_WriteReg(R5, 0x00000000)  returns 0x00 (0000ms, 0916ms total)
T17B8 002:916 JLINK_WriteReg(R6, 0x00000000)  returns 0x00 (0000ms, 0916ms total)
T17B8 002:916 JLINK_WriteReg(R7, 0x00000000)  returns 0x00 (0000ms, 0916ms total)
T17B8 002:916 JLINK_WriteReg(R8, 0x00000000)  returns 0x00 (0000ms, 0916ms total)
T17B8 002:916 JLINK_WriteReg(R9, 0x2000017C)  returns 0x00 (0000ms, 0916ms total)
T17B8 002:916 JLINK_WriteReg(R10, 0x00000000)  returns 0x00 (0000ms, 0916ms total)
T17B8 002:916 JLINK_WriteReg(R11, 0x00000000)  returns 0x00 (0000ms, 0916ms total)
T17B8 002:916 JLINK_WriteReg(R12, 0x00000000)  returns 0x00 (0000ms, 0916ms total)
T17B8 002:916 JLINK_WriteReg(R13 (SP), 0x20001000)  returns 0x00 (0000ms, 0916ms total)
T17B8 002:916 JLINK_WriteReg(R14, 0x20000001)  returns 0x00 (0000ms, 0916ms total)
T17B8 002:916 JLINK_WriteReg(R15 (PC), 0x20000020)  returns 0x00 (0000ms, 0916ms total)
T17B8 002:916 JLINK_WriteReg(XPSR, 0x01000000)  returns 0x00 (0000ms, 0916ms total)
T17B8 002:916 JLINK_WriteReg(MSP, 0x20001000)  returns 0x00 (0000ms, 0916ms total)
T17B8 002:916 JLINK_WriteReg(PSP, 0x20001000)  returns 0x00 (0000ms, 0916ms total)
T17B8 002:916 JLINK_WriteReg(CFBP, 0x00000000)  returns 0x00 (0000ms, 0916ms total)
T17B8 002:916 JLINK_SetBPEx(Addr = 0x20000000, Type = 0xFFFFFFF2)  returns 0x0000000A (0000ms, 0916ms total)
T17B8 002:916 JLINK_Go() -- CPU_ReadMem(4 bytes @ 0xE0001000) (0003ms, 0919ms total)
T17B8 002:919 JLINK_IsHalted() -- CPU_ReadMem(2 bytes @ 0x20000000)  returns TRUE (0004ms, 0923ms total)
T17B8 002:923 JLINK_ReadReg(R15 (PC))  returns 0x20000000 (0000ms, 0919ms total)
T17B8 002:923 JLINK_ClrBPEx(BPHandle = 0x0000000A)  returns 0x00 (0000ms, 0919ms total)
T17B8 002:923 JLINK_ReadReg(R0)  returns 0x00000001 (0000ms, 0919ms total)
T17B8 002:923 JLINK_WriteReg(R0, 0x08010000)  returns 0x00 (0000ms, 0919ms total)
T17B8 002:923 JLINK_WriteReg(R1, 0x00010000)  returns 0x00 (0000ms, 0919ms total)
T17B8 002:923 JLINK_WriteReg(R2, 0x000000FF)  returns 0x00 (0000ms, 0919ms total)
T17B8 002:923 JLINK_WriteReg(R3, 0x00000000)  returns 0x00 (0000ms, 0919ms total)
T17B8 002:923 JLINK_WriteReg(R4, 0x00000000)  returns 0x00 (0000ms, 0919ms total)
T17B8 002:923 JLINK_WriteReg(R5, 0x00000000)  returns 0x00 (0000ms, 0919ms total)
T17B8 002:923 JLINK_WriteReg(R6, 0x00000000)  returns 0x00 (0000ms, 0919ms total)
T17B8 002:923 JLINK_WriteReg(R7, 0x00000000)  returns 0x00 (0000ms, 0919ms total)
T17B8 002:923 JLINK_WriteReg(R8, 0x00000000)  returns 0x00 (0000ms, 0919ms total)
T17B8 002:923 JLINK_WriteReg(R9, 0x2000017C)  returns 0x00 (0000ms, 0919ms total)
T17B8 002:923 JLINK_WriteReg(R10, 0x00000000)  returns 0x00 (0000ms, 0919ms total)
T17B8 002:923 JLINK_WriteReg(R11, 0x00000000)  returns 0x00 (0000ms, 0919ms total)
T17B8 002:923 JLINK_WriteReg(R12, 0x00000000)  returns 0x00 (0000ms, 0919ms total)
T17B8 002:923 JLINK_WriteReg(R13 (SP), 0x20001000)  returns 0x00 (0000ms, 0919ms total)
T17B8 002:923 JLINK_WriteReg(R14, 0x20000001)  returns 0x00 (0000ms, 0919ms total)
T17B8 002:923 JLINK_WriteReg(R15 (PC), 0x200000BC)  returns 0x00 (0000ms, 0919ms total)
T17B8 002:923 JLINK_WriteReg(XPSR, 0x01000000)  returns 0x00 (0000ms, 0919ms total)
T17B8 002:923 JLINK_WriteReg(MSP, 0x20001000)  returns 0x00 (0000ms, 0919ms total)
T17B8 002:923 JLINK_WriteReg(PSP, 0x20001000)  returns 0x00 (0000ms, 0919ms total)
T17B8 002:923 JLINK_WriteReg(CFBP, 0x00000000)  returns 0x00 (0000ms, 0919ms total)
T17B8 002:923 JLINK_SetBPEx(Addr = 0x20000000, Type = 0xFFFFFFF2)  returns 0x0000000B (0000ms, 0919ms total)
T17B8 002:923 JLINK_Go() -- CPU_ReadMem(4 bytes @ 0xE0001000) (0003ms, 0922ms total)
T17B8 002:926 JLINK_IsHalted()  returns FALSE (0001ms, 0923ms total)
T17B8 003:025 JLINK_IsHalted()  returns FALSE (0001ms, 0923ms total)
T17B8 003:123 JLINK_IsHalted()  returns FALSE (0002ms, 0924ms total)
T17B8 003:216 JLINK_IsHalted()  returns FALSE (0001ms, 0923ms total)
T17B8 003:313 JLINK_IsHalted()  returns FALSE (0001ms, 0923ms total)
T17B8 003:424 JLINK_IsHalted()  returns FALSE (0001ms, 0923ms total)
T17B8 003:524 JLINK_IsHalted()  returns FALSE (0001ms, 0923ms total)
T17B8 003:638 JLINK_IsHalted()  returns FALSE (0001ms, 0923ms total)
T17B8 003:762 JLINK_IsHalted()  returns FALSE (0001ms, 0923ms total)
T17B8 003:868 JLINK_IsHalted()  returns FALSE (0001ms, 0923ms total)
T17B8 003:969 JLINK_IsHalted()  returns FALSE (0001ms, 0923ms total)
T17B8 004:081 JLINK_IsHalted()  returns FALSE (0001ms, 0923ms total)
T17B8 004:185 JLINK_IsHalted() -- CPU_ReadMem(2 bytes @ 0x20000000)  returns TRUE (0005ms, 0927ms total)
T17B8 004:190 JLINK_ReadReg(R15 (PC))  returns 0x20000000 (0000ms, 0922ms total)
T17B8 004:190 JLINK_ClrBPEx(BPHandle = 0x0000000B)  returns 0x00 (0000ms, 0922ms total)
T17B8 004:190 JLINK_ReadReg(R0)  returns 0x00000000 (0000ms, 0922ms total)
T17B8 004:192 JLINK_WriteReg(R0, 0x08020000)  returns 0x00 (0000ms, 0922ms total)
T17B8 004:192 JLINK_WriteReg(R1, 0x00020000)  returns 0x00 (0000ms, 0922ms total)
T17B8 004:192 JLINK_WriteReg(R2, 0x000000FF)  returns 0x00 (0000ms, 0922ms total)
T17B8 004:192 JLINK_WriteReg(R3, 0x00000000)  returns 0x00 (0000ms, 0922ms total)
T17B8 004:192 JLINK_WriteReg(R4, 0x00000000)  returns 0x00 (0001ms, 0923ms total)
T17B8 004:193 JLINK_WriteReg(R5, 0x00000000)  returns 0x00 (0000ms, 0923ms total)
T17B8 004:193 JLINK_WriteReg(R6, 0x00000000)  returns 0x00 (0000ms, 0923ms total)
T17B8 004:193 JLINK_WriteReg(R7, 0x00000000)  returns 0x00 (0000ms, 0923ms total)
T17B8 004:193 JLINK_WriteReg(R8, 0x00000000)  returns 0x00 (0000ms, 0923ms total)
T17B8 004:193 JLINK_WriteReg(R9, 0x2000017C)  returns 0x00 (0000ms, 0923ms total)
T17B8 004:193 JLINK_WriteReg(R10, 0x00000000)  returns 0x00 (0000ms, 0923ms total)
T17B8 004:193 JLINK_WriteReg(R11, 0x00000000)  returns 0x00 (0000ms, 0923ms total)
T17B8 004:193 JLINK_WriteReg(R12, 0x00000000)  returns 0x00 (0000ms, 0923ms total)
T17B8 004:193 JLINK_WriteReg(R13 (SP), 0x20001000)  returns 0x00 (0000ms, 0923ms total)
T17B8 004:193 JLINK_WriteReg(R14, 0x20000001)  returns 0x00 (0000ms, 0923ms total)
T17B8 004:193 JLINK_WriteReg(R15 (PC), 0x20000020)  returns 0x00 (0000ms, 0923ms total)
T17B8 004:193 JLINK_WriteReg(XPSR, 0x01000000)  returns 0x00 (0000ms, 0923ms total)
T17B8 004:193 JLINK_WriteReg(MSP, 0x20001000)  returns 0x00 (0000ms, 0923ms total)
T17B8 004:193 JLINK_WriteReg(PSP, 0x20001000)  returns 0x00 (0000ms, 0923ms total)
T17B8 004:193 JLINK_WriteReg(CFBP, 0x00000000)  returns 0x00 (0000ms, 0923ms total)
T17B8 004:193 JLINK_SetBPEx(Addr = 0x20000000, Type = 0xFFFFFFF2)  returns 0x0000000C (0000ms, 0923ms total)
T17B8 004:193 JLINK_Go() -- CPU_ReadMem(4 bytes @ 0xE0001000) (0003ms, 0926ms total)
T17B8 004:196 JLINK_IsHalted() -- CPU_ReadMem(2 bytes @ 0x20000000)  returns TRUE (0004ms, 0930ms total)
T17B8 004:200 JLINK_ReadReg(R15 (PC))  returns 0x20000000 (0000ms, 0926ms total)
T17B8 004:200 JLINK_ClrBPEx(BPHandle = 0x0000000C)  returns 0x00 (0000ms, 0926ms total)
T17B8 004:200 JLINK_ReadReg(R0)  returns 0x00000001 (0000ms, 0926ms total)
T17B8 004:200 JLINK_WriteReg(R0, 0x08020000)  returns 0x00 (0000ms, 0926ms total)
T17B8 004:200 JLINK_WriteReg(R1, 0x00020000)  returns 0x00 (0000ms, 0926ms total)
T17B8 004:200 JLINK_WriteReg(R2, 0x000000FF)  returns 0x00 (0000ms, 0926ms total)
T17B8 004:200 JLINK_WriteReg(R3, 0x00000000)  returns 0x00 (0000ms, 0926ms total)
T17B8 004:200 JLINK_WriteReg(R4, 0x00000000)  returns 0x00 (0000ms, 0926ms total)
T17B8 004:200 JLINK_WriteReg(R5, 0x00000000)  returns 0x00 (0000ms, 0926ms total)
T17B8 004:200 JLINK_WriteReg(R6, 0x00000000)  returns 0x00 (0000ms, 0926ms total)
T17B8 004:200 JLINK_WriteReg(R7, 0x00000000)  returns 0x00 (0000ms, 0926ms total)
T17B8 004:200 JLINK_WriteReg(R8, 0x00000000)  returns 0x00 (0000ms, 0926ms total)
T17B8 004:200 JLINK_WriteReg(R9, 0x2000017C)  returns 0x00 (0000ms, 0926ms total)
T17B8 004:200 JLINK_WriteReg(R10, 0x00000000)  returns 0x00 (0000ms, 0926ms total)
T17B8 004:200 JLINK_WriteReg(R11, 0x00000000)  returns 0x00 (0000ms, 0926ms total)
T17B8 004:200 JLINK_WriteReg(R12, 0x00000000)  returns 0x00 (0000ms, 0926ms total)
T17B8 004:200 JLINK_WriteReg(R13 (SP), 0x20001000)  returns 0x00 (0000ms, 0926ms total)
T17B8 004:200 JLINK_WriteReg(R14, 0x20000001)  returns 0x00 (0000ms, 0926ms total)
T17B8 004:200 JLINK_WriteReg(R15 (PC), 0x200000BC)  returns 0x00 (0000ms, 0926ms total)
T17B8 004:200 JLINK_WriteReg(XPSR, 0x01000000)  returns 0x00 (0000ms, 0926ms total)
T17B8 004:200 JLINK_WriteReg(MSP, 0x20001000)  returns 0x00 (0000ms, 0926ms total)
T17B8 004:200 JLINK_WriteReg(PSP, 0x20001000)  returns 0x00 (0000ms, 0926ms total)
T17B8 004:200 JLINK_WriteReg(CFBP, 0x00000000)  returns 0x00 (0000ms, 0926ms total)
T17B8 004:200 JLINK_SetBPEx(Addr = 0x20000000, Type = 0xFFFFFFF2)  returns 0x0000000D (0000ms, 0926ms total)
T17B8 004:200 JLINK_Go() -- CPU_ReadMem(4 bytes @ 0xE0001000) (0003ms, 0929ms total)
T17B8 004:203 JLINK_IsHalted()  returns FALSE (0001ms, 0930ms total)
T17B8 004:314 JLINK_IsHalted()  returns FALSE (0001ms, 0930ms total)
T17B8 004:434 JLINK_IsHalted()  returns FALSE (0001ms, 0930ms total)
T17B8 004:552 JLINK_IsHalted()  returns FALSE (0001ms, 0930ms total)
T17B8 004:675 JLINK_IsHalted()  returns FALSE (0001ms, 0930ms total)
T17B8 004:784 JLINK_IsHalted()  returns FALSE (0001ms, 0930ms total)
T17B8 004:900 JLINK_IsHalted()  returns FALSE (0001ms, 0930ms total)
T17B8 005:004 JLINK_IsHalted()  returns FALSE (0001ms, 0930ms total)
T17B8 005:114 JLINK_IsHalted()  returns FALSE (0001ms, 0930ms total)
T17B8 005:211 JLINK_IsHalted()  returns FALSE (0002ms, 0931ms total)
T17B8 005:320 JLINK_IsHalted()  returns FALSE (0002ms, 0931ms total)
T17B8 005:420 JLINK_IsHalted()  returns FALSE (0001ms, 0930ms total)
T17B8 005:518 JLINK_IsHalted()  returns FALSE (0001ms, 0930ms total)
T17B8 005:619 JLINK_IsHalted()  returns FALSE (0001ms, 0930ms total)
T17B8 005:734 JLINK_IsHalted()  returns FALSE (0001ms, 0930ms total)
T17B8 005:827 JLINK_IsHalted()  returns FALSE (0001ms, 0930ms total)
T17B8 005:915 JLINK_IsHalted()  returns FALSE (0001ms, 0930ms total)
T17B8 006:005 JLINK_IsHalted()  returns FALSE (0001ms, 0930ms total)
T17B8 006:099 JLINK_IsHalted()  returns FALSE (0001ms, 0930ms total)
T17B8 006:186 JLINK_IsHalted()  returns FALSE (0001ms, 0930ms total)
T17B8 006:282 JLINK_IsHalted()  returns FALSE (0002ms, 0931ms total)
T17B8 006:373 JLINK_IsHalted()  returns FALSE (0001ms, 0930ms total)
T17B8 006:463 JLINK_IsHalted() -- CPU_ReadMem(2 bytes @ 0x20000000)  returns TRUE (0004ms, 0933ms total)
T17B8 006:467 JLINK_ReadReg(R15 (PC))  returns 0x20000000 (0000ms, 0929ms total)
T17B8 006:467 JLINK_ClrBPEx(BPHandle = 0x0000000D)  returns 0x00 (0000ms, 0929ms total)
T17B8 006:467 JLINK_ReadReg(R0)  returns 0x00000000 (0000ms, 0929ms total)
T17B8 006:467 JLINK_WriteReg(R0, 0x00000001)  returns 0x00 (0000ms, 0929ms total)
T17B8 006:467 JLINK_WriteReg(R1, 0x00020000)  returns 0x00 (0000ms, 0929ms total)
T17B8 006:467 JLINK_WriteReg(R2, 0x000000FF)  returns 0x00 (0000ms, 0929ms total)
T17B8 006:467 JLINK_WriteReg(R3, 0x00000000)  returns 0x00 (0000ms, 0929ms total)
T17B8 006:467 JLINK_WriteReg(R4, 0x00000000)  returns 0x00 (0000ms, 0929ms total)
T17B8 006:467 JLINK_WriteReg(R5, 0x00000000)  returns 0x00 (0000ms, 0929ms total)
T17B8 006:467 JLINK_WriteReg(R6, 0x00000000)  returns 0x00 (0000ms, 0929ms total)
T17B8 006:467 JLINK_WriteReg(R7, 0x00000000)  returns 0x00 (0000ms, 0929ms total)
T17B8 006:467 JLINK_WriteReg(R8, 0x00000000)  returns 0x00 (0000ms, 0929ms total)
T17B8 006:467 JLINK_WriteReg(R9, 0x2000017C)  returns 0x00 (0000ms, 0929ms total)
T17B8 006:467 JLINK_WriteReg(R10, 0x00000000)  returns 0x00 (0000ms, 0929ms total)
T17B8 006:467 JLINK_WriteReg(R11, 0x00000000)  returns 0x00 (0000ms, 0929ms total)
T17B8 006:467 JLINK_WriteReg(R12, 0x00000000)  returns 0x00 (0000ms, 0929ms total)
T17B8 006:467 JLINK_WriteReg(R13 (SP), 0x20001000)  returns 0x00 (0000ms, 0929ms total)
T17B8 006:467 JLINK_WriteReg(R14, 0x20000001)  returns 0x00 (0000ms, 0929ms total)
T17B8 006:467 JLINK_WriteReg(R15 (PC), 0x20000082)  returns 0x00 (0000ms, 0929ms total)
T17B8 006:467 JLINK_WriteReg(XPSR, 0x01000000)  returns 0x00 (0000ms, 0929ms total)
T17B8 006:467 JLINK_WriteReg(MSP, 0x20001000)  returns 0x00 (0000ms, 0929ms total)
T17B8 006:467 JLINK_WriteReg(PSP, 0x20001000)  returns 0x00 (0000ms, 0929ms total)
T17B8 006:467 JLINK_WriteReg(CFBP, 0x00000000)  returns 0x00 (0000ms, 0929ms total)
T17B8 006:467 JLINK_SetBPEx(Addr = 0x20000000, Type = 0xFFFFFFF2)  returns 0x0000000E (0000ms, 0929ms total)
T17B8 006:467 JLINK_Go() -- CPU_ReadMem(4 bytes @ 0xE0001000) (0003ms, 0932ms total)
T17B8 006:470 JLINK_IsHalted() -- CPU_ReadMem(2 bytes @ 0x20000000)  returns TRUE (0004ms, 0936ms total)
T17B8 006:474 JLINK_ReadReg(R15 (PC))  returns 0x20000000 (0000ms, 0932ms total)
T17B8 006:474 JLINK_ClrBPEx(BPHandle = 0x0000000E)  returns 0x00 (0000ms, 0932ms total)
T17B8 006:474 JLINK_ReadReg(R0)  returns 0x00000000 (0000ms, 0932ms total)
T17B8 006:535 JLINK_WriteMem(0x20000000, 0x0180 Bytes, ...) - Data: 00 BE 0A E0 0D 78 2D 06 68 40 08 24 40 00 00 D3 ... -- CPU_WriteMem(384 bytes @ 0x20000000)  returns 0x180 (0002ms, 0934ms total)
T17B8 006:537 JLINK_WriteReg(R0, 0x08000000)  returns 0x00 (0000ms, 0934ms total)
T17B8 006:537 JLINK_WriteReg(R1, 0x017D7840)  returns 0x00 (0000ms, 0934ms total)
T17B8 006:537 JLINK_WriteReg(R2, 0x00000002)  returns 0x00 (0000ms, 0934ms total)
T17B8 006:537 JLINK_WriteReg(R3, 0x00000000)  returns 0x00 (0000ms, 0934ms total)
T17B8 006:537 JLINK_WriteReg(R4, 0x00000000)  returns 0x00 (0000ms, 0934ms total)
T17B8 006:537 JLINK_WriteReg(R5, 0x00000000)  returns 0x00 (0000ms, 0934ms total)
T17B8 006:537 JLINK_WriteReg(R6, 0x00000000)  returns 0x00 (0000ms, 0934ms total)
T17B8 006:537 JLINK_WriteReg(R7, 0x00000000)  returns 0x00 (0000ms, 0934ms total)
T17B8 006:537 JLINK_WriteReg(R8, 0x00000000)  returns 0x00 (0000ms, 0934ms total)
T17B8 006:537 JLINK_WriteReg(R9, 0x2000017C)  returns 0x00 (0000ms, 0934ms total)
T17B8 006:537 JLINK_WriteReg(R10, 0x00000000)  returns 0x00 (0000ms, 0934ms total)
T17B8 006:537 JLINK_WriteReg(R11, 0x00000000)  returns 0x00 (0000ms, 0934ms total)
T17B8 006:537 JLINK_WriteReg(R12, 0x00000000)  returns 0x00 (0000ms, 0934ms total)
T17B8 006:537 JLINK_WriteReg(R13 (SP), 0x20001000)  returns 0x00 (0000ms, 0934ms total)
T17B8 006:537 JLINK_WriteReg(R14, 0x20000001)  returns 0x00 (0000ms, 0934ms total)
T17B8 006:537 JLINK_WriteReg(R15 (PC), 0x20000054)  returns 0x00 (0000ms, 0934ms total)
T17B8 006:537 JLINK_WriteReg(XPSR, 0x01000000)  returns 0x00 (0000ms, 0934ms total)
T17B8 006:537 JLINK_WriteReg(MSP, 0x20001000)  returns 0x00 (0000ms, 0934ms total)
T17B8 006:537 JLINK_WriteReg(PSP, 0x20001000)  returns 0x00 (0000ms, 0934ms total)
T17B8 006:537 JLINK_WriteReg(CFBP, 0x00000000)  returns 0x00 (0000ms, 0934ms total)
T17B8 006:537 JLINK_SetBPEx(Addr = 0x20000000, Type = 0xFFFFFFF2) -- CPU_ReadMem(4 bytes @ 0x20000000) -- CPU_WriteMem(4 bytes @ 0x20000000) -- CPU_ReadMem(4 bytes @ 0x20000000) -- CPU_WriteMem(4 bytes @ 0x20000000) -- CPU_ReadMem(2 bytes @ 0x20000000)  returns 0x0000000F (0005ms, 0939ms total)
T17B8 006:542 JLINK_Go() -- CPU_WriteMem(2 bytes @ 0x20000000) -- CPU_ReadMem(4 bytes @ 0xE0001000) (0004ms, 0943ms total)
T17B8 006:546 JLINK_IsHalted() -- CPU_ReadMem(2 bytes @ 0x20000000)  returns TRUE (0004ms, 0947ms total)
T17B8 006:550 JLINK_ReadReg(R15 (PC))  returns 0x20000000 (0000ms, 0943ms total)
T17B8 006:550 JLINK_ClrBPEx(BPHandle = 0x0000000F)  returns 0x00 (0000ms, 0943ms total)
T17B8 006:550 JLINK_ReadReg(R0)  returns 0x00000000 (0000ms, 0943ms total)
T17B8 006:550 JLINK_WriteMem(0x20000180, 0x0400 Bytes, ...) - Data: 20 3D 00 20 45 68 00 08 85 1D 00 08 11 20 01 08 ... -- CPU_WriteMem(1024 bytes @ 0x20000180)  returns 0x400 (0004ms, 0947ms total)
T17B8 006:554 JLINK_WriteReg(R0, 0x08000000)  returns 0x00 (0000ms, 0947ms total)
T17B8 006:554 JLINK_WriteReg(R1, 0x00000400)  returns 0x00 (0000ms, 0947ms total)
T17B8 006:554 JLINK_WriteReg(R2, 0x20000180)  returns 0x00 (0000ms, 0947ms total)
T17B8 006:554 JLINK_WriteReg(R3, 0x00000000)  returns 0x00 (0000ms, 0947ms total)
T17B8 006:554 JLINK_WriteReg(R4, 0x00000000)  returns 0x00 (0000ms, 0947ms total)
T17B8 006:554 JLINK_WriteReg(R5, 0x00000000)  returns 0x00 (0000ms, 0947ms total)
T17B8 006:554 JLINK_WriteReg(R6, 0x00000000)  returns 0x00 (0000ms, 0947ms total)
T17B8 006:554 JLINK_WriteReg(R7, 0x00000000)  returns 0x00 (0000ms, 0947ms total)
T17B8 006:554 JLINK_WriteReg(R8, 0x00000000)  returns 0x00 (0000ms, 0947ms total)
T17B8 006:554 JLINK_WriteReg(R9, 0x2000017C)  returns 0x00 (0000ms, 0947ms total)
T17B8 006:554 JLINK_WriteReg(R10, 0x00000000)  returns 0x00 (0000ms, 0947ms total)
T17B8 006:554 JLINK_WriteReg(R11, 0x00000000)  returns 0x00 (0000ms, 0947ms total)
T17B8 006:554 JLINK_WriteReg(R12, 0x00000000)  returns 0x00 (0000ms, 0947ms total)
T17B8 006:554 JLINK_WriteReg(R13 (SP), 0x20001000)  returns 0x00 (0000ms, 0947ms total)
T17B8 006:554 JLINK_WriteReg(R14, 0x20000001)  returns 0x00 (0000ms, 0947ms total)
T17B8 006:554 JLINK_WriteReg(R15 (PC), 0x20000108)  returns 0x00 (0000ms, 0947ms total)
T17B8 006:554 JLINK_WriteReg(XPSR, 0x01000000)  returns 0x00 (0000ms, 0947ms total)
T17B8 006:554 JLINK_WriteReg(MSP, 0x20001000)  returns 0x00 (0000ms, 0947ms total)
T17B8 006:554 JLINK_WriteReg(PSP, 0x20001000)  returns 0x00 (0000ms, 0947ms total)
T17B8 006:554 JLINK_WriteReg(CFBP, 0x00000000)  returns 0x00 (0000ms, 0947ms total)
T17B8 006:554 JLINK_SetBPEx(Addr = 0x20000000, Type = 0xFFFFFFF2)  returns 0x00000010 (0000ms, 0947ms total)
T17B8 006:554 JLINK_Go() -- CPU_ReadMem(4 bytes @ 0xE0001000) (0003ms, 0950ms total)
T17B8 006:557 JLINK_IsHalted()  returns FALSE (0001ms, 0951ms total)
T17B8 006:665 JLINK_IsHalted() -- CPU_ReadMem(2 bytes @ 0x20000000)  returns TRUE (0004ms, 0954ms total)
T17B8 006:669 JLINK_ReadReg(R15 (PC))  returns 0x20000000 (0000ms, 0950ms total)
T17B8 006:669 JLINK_ClrBPEx(BPHandle = 0x00000010)  returns 0x00 (0000ms, 0950ms total)
T17B8 006:669 JLINK_ReadReg(R0)  returns 0x00000000 (0000ms, 0950ms total)
T17B8 006:671 JLINK_WriteMem(0x20000180, 0x0400 Bytes, ...) - Data: 0E F0 5F F9 02 E0 0A 20 11 F0 E7 F9 FB E7 32 20 ... -- CPU_WriteMem(1024 bytes @ 0x20000180)  returns 0x400 (0004ms, 0954ms total)
T17B8 006:675 JLINK_WriteReg(R0, 0x08000400)  returns 0x00 (0000ms, 0954ms total)
T17B8 006:675 JLINK_WriteReg(R1, 0x00000400)  returns 0x00 (0000ms, 0954ms total)
T17B8 006:675 JLINK_WriteReg(R2, 0x20000180)  returns 0x00 (0000ms, 0954ms total)
T17B8 006:675 JLINK_WriteReg(R3, 0x00000000)  returns 0x00 (0000ms, 0954ms total)
T17B8 006:675 JLINK_WriteReg(R4, 0x00000000)  returns 0x00 (0000ms, 0954ms total)
T17B8 006:675 JLINK_WriteReg(R5, 0x00000000)  returns 0x00 (0000ms, 0954ms total)
T17B8 006:675 JLINK_WriteReg(R6, 0x00000000)  returns 0x00 (0000ms, 0954ms total)
T17B8 006:675 JLINK_WriteReg(R7, 0x00000000)  returns 0x00 (0000ms, 0954ms total)
T17B8 006:675 JLINK_WriteReg(R8, 0x00000000)  returns 0x00 (0001ms, 0955ms total)
T17B8 006:676 JLINK_WriteReg(R9, 0x2000017C)  returns 0x00 (0000ms, 0955ms total)
T17B8 006:676 JLINK_WriteReg(R10, 0x00000000)  returns 0x00 (0000ms, 0955ms total)
T17B8 006:676 JLINK_WriteReg(R11, 0x00000000)  returns 0x00 (0000ms, 0955ms total)
T17B8 006:676 JLINK_WriteReg(R12, 0x00000000)  returns 0x00 (0000ms, 0955ms total)
T17B8 006:676 JLINK_WriteReg(R13 (SP), 0x20001000)  returns 0x00 (0000ms, 0955ms total)
T17B8 006:676 JLINK_WriteReg(R14, 0x20000001)  returns 0x00 (0000ms, 0955ms total)
T17B8 006:676 JLINK_WriteReg(R15 (PC), 0x20000108)  returns 0x00 (0000ms, 0955ms total)
T17B8 006:676 JLINK_WriteReg(XPSR, 0x01000000)  returns 0x00 (0000ms, 0955ms total)
T17B8 006:676 JLINK_WriteReg(MSP, 0x20001000)  returns 0x00 (0000ms, 0955ms total)
T17B8 006:676 JLINK_WriteReg(PSP, 0x20001000)  returns 0x00 (0000ms, 0955ms total)
T17B8 006:676 JLINK_WriteReg(CFBP, 0x00000000)  returns 0x00 (0000ms, 0955ms total)
T17B8 006:676 JLINK_SetBPEx(Addr = 0x20000000, Type = 0xFFFFFFF2)  returns 0x00000011 (0000ms, 0955ms total)
T17B8 006:676 JLINK_Go() -- CPU_ReadMem(4 bytes @ 0xE0001000) (0002ms, 0957ms total)
T17B8 006:678 JLINK_IsHalted()  returns FALSE (0001ms, 0958ms total)
T17B8 006:784 JLINK_IsHalted() -- CPU_ReadMem(2 bytes @ 0x20000000)  returns TRUE (0004ms, 0961ms total)
T17B8 006:788 JLINK_ReadReg(R15 (PC))  returns 0x20000000 (0000ms, 0957ms total)
T17B8 006:788 JLINK_ClrBPEx(BPHandle = 0x00000011)  returns 0x00 (0000ms, 0957ms total)
T17B8 006:788 JLINK_ReadReg(R0)  returns 0x00000000 (0000ms, 0957ms total)
